<Qucs Dataset 0.0.19>
<indep acfrequency 19>
  +1.00000000000000002082e-002
  +3.16227766016837982810e-002
  +1.00000000000000019429e-001
  +3.16227766016838052199e-001
  +1.00000000000000044409e+000
  +3.16227766016838263141e+000
  +1.00000000000000071054e+001
  +3.16227766016838032215e+001
  +1.00000000000000099476e+002
  +3.16227766016838415908e+002
  +1.00000000000000204636e+003
  +3.16227766016838222640e+003
  +1.00000000000000127329e+004
  +3.16227766016838504584e+004
  +1.00000000000000058208e+005
  +3.16227766016838897485e+005
  +1.00000000000000186265e+006
  +3.16227766016838094220e+006
  +1.00000000000000279397e+007
</indep>
<dep Tdb_C acfrequency>
  -1.71452555384778860929e-006
  -1.71452250761597695659e-005
  -1.71449204950224385301e-004
  -1.71418754718454316444e-003
  -1.71115043445799717980e-002
  -1.68154766279124373574e-001
  -1.44507011620528702522e+000
  -6.94415801775900654036e+000
  -1.60722352658055243069e+001
  -2.59745842656988230601e+001
  -3.59646973086328785030e+001
  -4.59637073738464536632e+001
  -5.59636083679561195936e+001
  -6.59635984672429458442e+001
  -7.59635974771703814667e+001
  -8.59635973781631292923e+001
  -9.59635973682624126013e+001
  -1.05963597367272313932e+002
  -1.15963597367173335329e+002
</dep>
<dep ArgT_c acfrequency>
  -6.28318448034573631168e-004
  -1.98691503848658513470e-003
  -6.28310262573357654337e-003
  -1.98665624719293471001e-002
  -6.27493649693214861074e-002
  -1.96137325997253086918e-001
  -5.60982116108624029316e-001
  -1.10451849064204932205e+000
  -1.41296513650673793983e+000
  -1.52050954535003568502e+000
  -1.55488217609544365772e+000
  -1.56576344807892997579e+000
  -1.56920477870778962703e+000
  -1.57029303471638193024e+000
  -1.57063717185314843938e+000
  -1.57074599758283461881e+000
  -1.57078041129936041287e+000
  -1.57079129387368632287e+000
  -1.57079473524546564533e+000
</dep>
<dep ArgT_r acfrequency>
  +1.57016800834686209853e+000
  +1.56880941175640997720e+000
  +1.56451322416916305258e+000
  +1.55092976432296736355e+000
  +1.50804696182557518291e+000
  +1.37465900079764336006e+000
  +1.00981421068627241766e+000
  +4.66277836152847346973e-001
  +1.57831190288158729196e-001
  +5.02867814448609146138e-002
  +1.59141506994530702868e-002
  +5.03287871596668455465e-003
  +1.59154808710705890015e-003
  +5.03292078549748105043e-004
  +1.59154941748081374484e-004
  +5.03292120619917650900e-005
  +1.59154943078456922166e-005
  +5.03292121040620670712e-006
  +1.59154943091760442811e-006
</dep>
<dep Tdb_R acfrequency>
  -6.40364043473632591486e+001
  -5.40364197780627790735e+001
  -4.40365740820426481150e+001
  -3.40381168203848787357e+001
  -2.40535141371822831502e+001
  -1.42045573991168172512e+001
  -5.48147274904298154041e+000
  -9.80560650596705163373e-001
  -1.08637898643218072658e-001
  -1.09868985365090578166e-002
  -1.09994147055932078860e-003
  -1.10006684145347514276e-004
  -1.10007938069304474449e-005
  -1.10008063503067785434e-006
  -1.10008075941314062607e-007
  -1.10008085921945390215e-008
  -1.10007970139952290242e-009
  -1.10007584402695954260e-010
  -1.10010477384468667082e-011
</dep>
<dep Vc.v acfrequency>
  +9.99999605215979769923e+000-j6.28318282667842970685e-003
  +9.99996052173824878651e+000-j1.98690980915370123128e-002
  +9.99960523140879509185e+000-j6.28293726675838715146e-002
  +9.99605371616997473438e+000-j1.98613355905859517714e-001
  +9.96067682407172583225e+000-j6.25847782705716948470e-001
  +9.62020935754162387354e+000-j1.91145637995869877024e+000
  +7.16956800324897525201e+000-j4.50477243368388702294e+000
  +2.02108322864378031625e+000-j4.01572594549636008310e+000
  +2.47045230318575947948e-001-j1.55223096134647486899e+000
  +2.52662956360817474166e-002-j5.02020488292706623668e-001
  +2.53238812965158981150e-003-j1.59114638883028902683e-001
  +2.53296543029456547313e-004-j5.03279372829430471370e-002
  +2.53302317483578253972e-005-j1.59154539948735893051e-002
  +2.53302894925866439735e-006-j5.03291993559518233831e-003
  +2.53302952689605401866e-007-j1.59154939060453595734e-003
  +2.53302958464219061971e-008-j5.03292119770015105099e-004
  +2.53302978592273575487e-009-j1.59154943051580648064e-004
  +2.53302959099427990873e-010-j5.03292121032121626822e-005
  +2.53302959105201453055e-011-j1.59154943091491675022e-005
</dep>
<dep Vr.v acfrequency>
  +3.94784020189090179638e-006+j6.28318282667842970685e-003
  +3.94782617504270619681e-005+j1.98690980915370123128e-002
  +3.94768591204273727128e-004+j6.28293726675838715146e-002
  +3.94628383002547464958e-003+j1.98613355905859517714e-001
  +3.93231759282748546958e-002+j6.25847782705716948470e-001
  +3.79790642458376126456e-001+j1.91145637995869877024e+000
  +2.83043199675102474799e+000+j4.50477243368388702294e+000
  +7.97891677135621968375e+000+j4.01572594549636008310e+000
  +9.75295476968142338592e+000+j1.55223096134647486899e+000
  +9.97473370436391881810e+000+j5.02020488292706623668e-001
  +9.99746761187034849172e+000+j1.59114638883028902683e-001
  +9.99974670345697091989e+000+j5.03279372829430471370e-002
  +9.99997466976825144513e+000+j1.59154539948735893051e-002
  +9.99999746697105074134e+000+j5.03291993559518233831e-003
  +9.99999974669704805308e+000+j1.59154939060453595734e-003
  +9.99999997466970391713e+000+j5.03292119770015105099e-004
  +9.99999999746697021408e+000+j1.59154943051580648064e-004
  +9.99999999974669684377e+000+j5.03292121032121626822e-005
  +9.99999999997466915147e+000+j1.59154943091491675022e-005
</dep>
<dep Vin.v acfrequency>
  +1.00000000000000000000e+001
  +1.00000000000000000000e+001
  +1.00000000000000000000e+001
  +1.00000000000000000000e+001
  +1.00000000000000000000e+001
  +1.00000000000000000000e+001
  +1.00000000000000000000e+001
  +1.00000000000000000000e+001
  +1.00000000000000000000e+001
  +1.00000000000000000000e+001
  +1.00000000000000000000e+001
  +1.00000000000000000000e+001
  +1.00000000000000000000e+001
  +1.00000000000000000000e+001
  +1.00000000000000000000e+001
  +1.00000000000000000000e+001
  +1.00000000000000000000e+001
  +1.00000000000000000000e+001
  +1.00000000000000000000e+001
</dep>
<dep V.i acfrequency>
  -3.94784020189090132654e-009-j6.28318282667843061487e-006
  -3.94782617504270645092e-008-j1.98690980915370112828e-005
  -3.94768591204273752539e-007-j6.28293726675838761766e-005
  -3.94628383002547432432e-006-j1.98613355905859515979e-004
  -3.93231759282748602794e-005-j6.25847782705717093320e-004
  -3.79790642458376016734e-004-j1.91145637995869901483e-003
  -2.83043199675102503943e-003-j4.50477243368388718253e-003
  -7.97891677135621930905e-003-j4.01572594549636039535e-003
  -9.75295476968142394103e-003-j1.55223096134647479440e-003
  -9.97473370436391913729e-003-j5.02020488292706664434e-004
  -9.99746761187034552187e-003-j1.59114638883028832210e-004
  -9.99974670345697182194e-003-j5.03279372829430458902e-005
  -9.99997466976825129248e-003-j1.59154539948735883836e-005
  -9.99999746697105042215e-003-j5.03291993559518349705e-006
  -9.99999974669704694286e-003-j1.59154939060453582351e-006
  -9.99999997466970505511e-003-j5.03292119770015112722e-007
  -9.99999999746697086633e-003-j1.59154943051580656746e-007
  -9.99999999974669762093e-003-j5.03292121032121640057e-008
  -9.99999999997466804125e-003-j1.59154943091491777195e-008
</dep>
<dep _net0.v acfrequency>
  -1.52587890625000000000e-005
  +0.00000000000000000000e+000
  +0.00000000000000000000e+000
  +0.00000000000000000000e+000
  +6.25000000000000000000e-002-j1.00000000000000000000e+000
  -2.00000000000000000000e+000
  +0.00000000000000000000e+000
  +1.20000000000000000000e+001
  +8.00000000000000000000e+000
  +1.00000000000000000000e+001
  +9.98437500000000000000e+000+j5.00000000000000000000e-001
  +9.99218750000000000000e+000-j2.00000000000000000000e+000
  +9.99987792968750000000e+000
  +0.00000000000000000000e+000
  +1.00000000000000000000e+001+j3.12500000000000000000e-002
  +9.99999988079071044922e+000
  +0.00000000000000000000e+000
  +1.00000000000000000000e+001
  +9.99999999997089616954e+000-j6.10351562500000000000e-005
</dep>
<dep _net2.v acfrequency>
  -1.00000152587890625000e+001
  -1.00000000000000000000e+001
  -1.00000000000000000000e+001
  -1.00000000000000000000e+001
  -9.93750000000000000000e+000-j1.00000000000000000000e+000
  -1.20000000000000000000e+001
  -1.00000000000000000000e+001
  +2.00000000000000000000e+000
  -2.00000000000000000000e+000
  +0.00000000000000000000e+000
  -1.56250000000000000000e-002+j5.00000000000000000000e-001
  -7.81250000000000000000e-003-j2.00000000000000000000e+000
  -1.22070312500000000000e-004
  -1.00000000000000000000e+001
  +0.00000000000000000000e+000+j3.12500000000000000000e-002
  -1.19209289550781250000e-007
  -1.00000000000000000000e+001
  +0.00000000000000000000e+000
  -2.91038304567337036133e-011-j6.10351562500000000000e-005
</dep>
<dep _net1.v acfrequency>
  -1.92066292643909017964e-005-j6.28318282667842970685e-003
  -3.94782617504270619681e-005-j1.98690980915370123128e-002
  -3.94768591204273727128e-004-j6.28293726675838715146e-002
  -3.94628383002547464958e-003-j1.98613355905859517714e-001
  +2.31768240717251453042e-002-j1.62584778270571694847e+000
  -2.37979064245837612646e+000-j1.91145637995869877024e+000
  -2.83043199675102474799e+000-j4.50477243368388702294e+000
  +4.02108322864378031625e+000-j4.01572594549636008310e+000
  -1.75295476968142405205e+000-j1.55223096134647486899e+000
  +2.52662956360817474166e-002-j5.02020488292706623668e-001
  -1.30926118703484101885e-002+j3.40885361116971097317e-001
  -7.55920345697054345269e-003-j2.05032793728294304714e+000
  -9.67400807516421746028e-005-j1.59154539948735893051e-002
  -9.99999746697105074134e+000-j5.03291993559518233831e-003
  +2.53302952689605401866e-007+j2.96584506093954640427e-002
  -9.38789937043593438029e-008-j5.03292119770015105099e-004
  -9.99999999746697021408e+000-j1.59154943051580648064e-004
  +2.53302959099427990873e-010-j5.03292121032121626822e-005
  -3.77353454621355830778e-012-j7.69506505591491675022e-005
</dep>
