<Qucs Dataset 0.0.19>
<indep time 30>
  +0.00000000000000000000e+000
  +1.72413793103448270251e-006
  +3.44827586206896540501e-006
  +5.17241379310344747224e-006
  +6.89655172413793081002e-006
  +8.62068965517241245374e-006
  +1.03448275862068949445e-005
  +1.20689655172413774352e-005
  +1.37931034482758616200e-005
  +1.55172413793103424167e-005
  +1.72413793103448249075e-005
  +1.89655172413793073982e-005
  +2.06896551724137898890e-005
  +2.24137931034482723797e-005
  +2.41379310344827548705e-005
  +2.58620689655172407494e-005
  +2.75862068965517232401e-005
  +2.93103448275862057308e-005
  +3.10344827586206848335e-005
  +3.27586206896551707123e-005
  +3.44827586206896498150e-005
  +3.62068965517241356938e-005
  +3.79310344827586147965e-005
  +3.96551724137931006753e-005
  +4.13793103448275797780e-005
  +4.31034482758620656568e-005
  +4.48275862068965447594e-005
  +4.65517241379310306383e-005
  +4.82758620689655097409e-005
  +4.99999999999999956198e-005
</indep>
<dep Sonda_V.Vt time>
  +9.99990000099998965766e+000
  +8.41627753750161744506e+000
  +7.08333674294924264814e+000
  +5.96150248021750783778e+000
  +5.01734043027328091569e+000
  +4.22271148536641849347e+000
  +3.55393311186465066243e+000
  +2.99107353352889049347e+000
  +2.51735769958906274724e+000
  +2.11866733353218528180e+000
  +1.78312016242631443674e+000
  +1.50071578644224246091e+000
  +1.26303763432994564653e+000
  +1.06300212215111145042e+000
  +8.94647539380118317354e-001
  +7.52956370490775128701e-001
  +6.33705756632908290271e-001
  +5.33341640668952621240e-001
  +4.48872844682433935759e-001
  +3.77781923122636698054e-001
  +3.17950134718460120098e-001
  +2.67594297079879694934e-001
  +2.25213642048244011562e-001
  +1.89545087911549003934e-001
  +1.59525595450835666611e-001
  +1.34260485905171478294e-001
  +1.12996776627293016304e-001
  +9.51007397453942360244e-002
  +8.00390150061769389822e-002
  +6.73627139001062857915e-002
</dep>
<dep V1.It time>
  -9.99990000099998932626e-008
  -1.58372246249838233810e-003
  -2.91666325705075731023e-003
  -4.03849751978249248835e-003
  -4.98265956972671845288e-003
  -5.77728851463358162449e-003
  -6.44606688813534941390e-003
  -7.00892646647110952735e-003
  -7.48264230041093686419e-003
  -7.88133266646781627252e-003
  -8.21687983757368387017e-003
  -8.49928421355775585988e-003
  -8.73696236567005242446e-003
  -8.93699787784888767528e-003
  -9.10535246061988136346e-003
  -9.24704362950922419129e-003
  -9.36629424336709107135e-003
  -9.46665835933104514444e-003
  -9.55112715531756736875e-003
  -9.62221807687736220560e-003
  -9.68204986528154246117e-003
  -9.73240570292011920872e-003
  -9.77478635795175562762e-003
  -9.81045491208845134301e-003
  -9.84047440454916683139e-003
  -9.86573951409482931274e-003
  -9.88700322337270932904e-003
  -9.90489926025460432069e-003
  -9.91996098499382458757e-003
  -9.93263728609989141050e-003
</dep>
<dep Sonda_I.It time>
  +9.99990000099998932626e-008
  +1.58372246249838233810e-003
  +2.91666325705075774391e-003
  +4.03849751978249248835e-003
  +4.98265956972671932024e-003
  +5.77728851463358162449e-003
  +6.44606688813534941390e-003
  +7.00892646647110952735e-003
  +7.48264230041093686419e-003
  +7.88133266646781453779e-003
  +8.21687983757368560489e-003
  +8.49928421355775759460e-003
  +8.73696236567005415918e-003
  +8.93699787784888767528e-003
  +9.10535246061988136346e-003
  +9.24704362950922419129e-003
  +9.36629424336709107135e-003
  +9.46665835933104687916e-003
  +9.55112715531756563403e-003
  +9.62221807687736394032e-003
  +9.68204986528154072645e-003
  +9.73240570292012094344e-003
  +9.77478635795175562762e-003
  +9.81045491208845134301e-003
  +9.84047440454916509667e-003
  +9.86573951409482931274e-003
  +9.88700322337270759432e-003
  +9.90489926025460605541e-003
  +9.91996098499382285285e-003
  +9.93263728609989314522e-003
</dep>
<dep _net0.Vt time>
  +1.00000000000000000000e+001
  +1.00000000000000000000e+001
  +1.00000000000000000000e+001
  +1.00000000000000000000e+001
  +1.00000000000000000000e+001
  +1.00000000000000000000e+001
  +1.00000000000000000000e+001
  +1.00000000000000000000e+001
  +1.00000000000000000000e+001
  +1.00000000000000000000e+001
  +1.00000000000000000000e+001
  +1.00000000000000000000e+001
  +1.00000000000000000000e+001
  +1.00000000000000000000e+001
  +1.00000000000000000000e+001
  +1.00000000000000000000e+001
  +1.00000000000000000000e+001
  +1.00000000000000000000e+001
  +1.00000000000000000000e+001
  +1.00000000000000000000e+001
  +1.00000000000000000000e+001
  +1.00000000000000000000e+001
  +1.00000000000000000000e+001
  +1.00000000000000000000e+001
  +1.00000000000000000000e+001
  +1.00000000000000000000e+001
  +1.00000000000000000000e+001
  +1.00000000000000000000e+001
  +1.00000000000000000000e+001
  +1.00000000000000000000e+001
</dep>
<dep _net1.Vt time>
  +9.99990000099998973919e-005
  +1.58372246249838233290e+000
  +2.91666325705075779595e+000
  +4.03849751978249216222e+000
  +4.98265956972671908431e+000
  +5.77728851463358150653e+000
  +6.44606688813534933757e+000
  +7.00892646647110950653e+000
  +7.48264230041093725276e+000
  +7.88133266646781471820e+000
  +8.21687983757368556326e+000
  +8.49928421355775753909e+000
  +8.73696236567005435347e+000
  +8.93699787784888854958e+000
  +9.10535246061988168265e+000
  +9.24704362950922487130e+000
  +9.36629424336709170973e+000
  +9.46665835933104737876e+000
  +9.55112715531756606424e+000
  +9.62221807687736330195e+000
  +9.68204986528153987990e+000
  +9.73240570292012030507e+000
  +9.77478635795175598844e+000
  +9.81045491208845099607e+000
  +9.84047440454916433339e+000
  +9.86573951409482852171e+000
  +9.88700322337270698370e+000
  +9.90489926025460576398e+000
  +9.91996098499382306102e+000
  +9.93263728609989371421e+000
</dep>
<dep _net2.Vt time>
  +9.99990000099998973919e-005
  +1.58372246249838233290e+000
  +2.91666325705075779595e+000
  +4.03849751978249216222e+000
  +4.98265956972671908431e+000
  +5.77728851463358150653e+000
  +6.44606688813534933757e+000
  +7.00892646647110950653e+000
  +7.48264230041093725276e+000
  +7.88133266646781471820e+000
  +8.21687983757368556326e+000
  +8.49928421355775753909e+000
  +8.73696236567005435347e+000
  +8.93699787784888854958e+000
  +9.10535246061988168265e+000
  +9.24704362950922487130e+000
  +9.36629424336709170973e+000
  +9.46665835933104737876e+000
  +9.55112715531756606424e+000
  +9.62221807687736330195e+000
  +9.68204986528153987990e+000
  +9.73240570292012030507e+000
  +9.77478635795175598844e+000
  +9.81045491208845099607e+000
  +9.84047440454916433339e+000
  +9.86573951409482852171e+000
  +9.88700322337270698370e+000
  +9.90489926025460576398e+000
  +9.91996098499382306102e+000
  +9.93263728609989371421e+000
</dep>
