<Qucs Dataset 0.0.19>
<indep time 11>
  +0.00000000000000000000e+000
  +4.99999999999999956198e-006
  +9.99999999999999912396e-006
  +1.49999999999999986859e-005
  +1.99999999999999982479e-005
  +2.49999999999999978099e-005
  +2.99999999999999973719e-005
  +3.49999999999999969339e-005
  +3.99999999999999964959e-005
  +4.49999999999999960578e-005
  +4.99999999999999956198e-005
</indep>
<dep VL.Vt time>
  +1.77635683940025046468e-015
  +3.55271367880050092936e-015
  +1.77635683940025046468e-015
  +1.77635683940025046468e-015
  +5.32907051820075139403e-015
  +7.10542735760100185871e-015
  +5.32907051820075139403e-015
  +7.10542735760100185871e-015
  +5.32907051820075139403e-015
  +7.10542735760100185871e-015
  +7.10542735760100185871e-015
</dep>
<dep V.It time>
  -1.00000000000000002082e-002
  -9.99999999999999673872e-003
  -1.00000000000000002082e-002
  -9.99999999999999847344e-003
  -9.99999999999999500400e-003
  -9.99999999999999326927e-003
  -9.99999999999999500400e-003
  -9.99999999999999326927e-003
  -9.99999999999999500400e-003
  -9.99999999999999326927e-003
  -9.99999999999999326927e-003
</dep>
<dep IL.It time>
  +9.99999999999999847344e-003
  +9.99999999999999673872e-003
  +9.99999999999999847344e-003
  +9.99999999999999847344e-003
  +9.99999999999999500400e-003
  +9.99999999999999326927e-003
  +9.99999999999999500400e-003
  +9.99999999999999326927e-003
  +9.99999999999999500400e-003
  +9.99999999999999326927e-003
  +9.99999999999999326927e-003
</dep>
<dep _net2.Vt time>
  +9.99999999999999822364e+000
  +9.99999999999999644729e+000
  +9.99999999999999822364e+000
  +9.99999999999999822364e+000
  +9.99999999999999467093e+000
  +9.99999999999999289457e+000
  +9.99999999999999467093e+000
  +9.99999999999999289457e+000
  +9.99999999999999467093e+000
  +9.99999999999999289457e+000
  +9.99999999999999289457e+000
</dep>
<dep _net0.Vt time>
  +1.00000000000000000000e+001
  +1.00000000000000000000e+001
  +1.00000000000000000000e+001
  +1.00000000000000000000e+001
  +1.00000000000000000000e+001
  +1.00000000000000000000e+001
  +1.00000000000000000000e+001
  +1.00000000000000000000e+001
  +1.00000000000000000000e+001
  +1.00000000000000000000e+001
  +1.00000000000000000000e+001
</dep>
<dep _net1.Vt time>
  +9.99999999999999822364e+000
  +9.99999999999999644729e+000
  +9.99999999999999822364e+000
  +9.99999999999999822364e+000
  +9.99999999999999467093e+000
  +9.99999999999999289457e+000
  +9.99999999999999467093e+000
  +9.99999999999999289457e+000
  +9.99999999999999467093e+000
  +9.99999999999999289457e+000
  +9.99999999999999289457e+000
</dep>
