<Qucs Dataset 0.0.19>
<indep acfrequency 19>
  +1.00000000000000002082e-002
  +5.55555564999999944121e+005
  +1.11111112000000011176e+006
  +1.66666667500000004657e+006
  +2.22222222999999998137e+006
  +2.77777778500000014901e+006
  +3.33333333999999985099e+006
  +3.88888889500000001863e+006
  +4.44444445000000018626e+006
  +5.00000000499999988824e+006
  +5.55555555999999959022e+006
  +6.11111111500000022352e+006
  +6.66666666999999992549e+006
  +7.22222222499999962747e+006
  +7.77777778000000026077e+006
  +8.33333333499999996275e+006
  +8.88888889000000059605e+006
  +9.44444444500000029802e+006
  +1.00000000000000000000e+007
</indep>
<dep Tdb_C acfrequency>
  -1.33979669860409131843e+002
  -4.88627289014463883632e+001
  -5.48853996287532055476e+001
  -5.84076082304314851967e+001
  -6.09065171520534107685e+001
  -6.28447795203031347455e+001
  -6.44284381778392258866e+001
  -6.57673943119065427254e+001
  -6.69272464534466848818e+001
  -6.79503059533642641554e+001
  -6.88654622384938477353e+001
  -6.96933207314851017600e+001
  -7.04490955922240686959e+001
  -7.11443405523993135375e+001
  -7.17880364692414758565e+001
  -7.23873027514510027913e+001
  -7.29478787085802622414e+001
  -7.34744587138269196203e+001
  -7.39709314197202729702e+001
</dep>
<dep ArgT_c acfrequency>
  -4.71238918037847831499e+000
  -1.56719166523346209452e+000
  -1.56899442858605331352e+000
  -1.56959511470968404723e+000
  -1.56989543174393175740e+000
  -1.57007561594265321325e+000
  -1.57019573676665125106e+000
  -1.57028153655591262705e+000
  -1.57034588602508962119e+000
  -1.57039593541957489542e+000
  -1.57043597482752028682e+000
  -1.57046873427916300336e+000
  -1.57049603378227797812e+000
  -1.57051913333587656041e+000
  -1.57053893293577595536e+000
  -1.57055609257691575209e+000
  -1.57057110725431026133e+000
  -1.57058435549282116028e+000
  -1.57059613170020373474e+000
</dep>
<dep Vin.v acfrequency>
  -1.00000000000000000000e+001
  -1.00000000000000000000e+001
  -1.00000000000000000000e+001
  -1.00000000000000000000e+001
  -1.00000000000000000000e+001
  -1.00000000000000000000e+001
  -1.00000000000000000000e+001
  -1.00000000000000000000e+001
  -1.00000000000000000000e+001
  -1.00000000000000000000e+001
  -1.00000000000000000000e+001
  -1.00000000000000000000e+001
  -1.00000000000000000000e+001
  -1.00000000000000000000e+001
  -1.00000000000000000000e+001
  -1.00000000000000000000e+001
  -1.00000000000000000000e+001
  -1.00000000000000000000e+001
  -1.00000000000000000000e+001
</dep>
<dep Vc.v acfrequency>
  -3.99975153696736906888e-013-j1.99993788327718051767e-006
  -1.29935286948308534013e-004+j3.60463033653146067148e-002
  -3.24683364105021315124e-005+j1.80189430853241808195e-002
  -1.44290977966364390614e-005+j1.20121092971842858416e-002
  -8.11611673281555574312e-006+j9.00894563513426546719e-003
  -5.19424042607533433587e-006+j7.20710602673637224652e-003
  -3.60708338657559936439e-006+j6.00589883820110918139e-003
  -2.65008966743228934447e-006+j5.14790148034591395210e-003
  -2.02896873381787209032e-006+j4.50440708878145201072e-003
  -1.60313244865099809912e-006+j4.00391332529518358813e-003
  -1.29853534771263861220e-006+j3.60351936180899933351e-003
  -1.07316852525695084936e-006+j3.27592492296127331744e-003
  -9.01758907169827566651e-007+j3.00292994565793183726e-003
  -7.68362117554749441423e-007+j2.77193444820889511523e-003
  -6.62515972498616458611e-007+j2.57393847752015059865e-003
  -5.77124783785647471923e-007+j2.40234208737711988149e-003
  -5.07238406042546646210e-007+j2.25219532970270287786e-003
  -4.49318322305451784202e-007+j2.11971295725802517593e-003
  -4.00780754036689498405e-007+j2.00195089343911799759e-003
</dep>
<dep V.i acfrequency>
  -9.99999999999959948704e-003+j1.99993788327718049120e-009
  -9.99987006471305187039e-003-j3.60463033653146060101e-005
  -9.99996753166359012011e-003-j1.80189430853241822560e-005
  -9.99998557090220341337e-003-j1.20121092971842854621e-005
  -9.99999188388326666621e-003-j9.00894563513426647008e-006
  -9.99999480575957354345e-003-j7.20710602673637279540e-006
  -9.99999639291661301943e-003-j6.00589883820110910685e-006
  -9.99999734991033339959e-003-j5.14790148034591443999e-006
  -9.99999797103126586428e-003-j4.50440708878145216657e-006
  -9.99999839686755223611e-003-j4.00391332529518405569e-006
  -9.99999870146465325016e-003-j3.60351936180899960795e-006
  -9.99999892683147567629e-003-j3.27592492296127337504e-006
  -9.99999909824109307899e-003-j3.00292994565793175255e-006
  -9.99999923163788322078e-003-j2.77193444820889537951e-006
  -9.99999933748402757006e-003-j2.57393847752015082227e-006
  -9.99999942287521648154e-003-j2.40234208737711998314e-006
  -9.99999949276159441625e-003-j2.25219532970270288125e-006
  -9.99999955068167807604e-003-j2.11971295725802539954e-006
  -9.99999959921924613804e-003-j2.00195089343911809246e-006
</dep>
<dep _net1.v acfrequency>
  +3.99975153696736906888e-013+j1.99993788327718051767e-006
  +1.29935286948308534013e-004-j3.60463033653146067148e-002
  +3.24683364105021315124e-005-j1.80189430853241808195e-002
  +1.44290977966364390614e-005-j1.20121092971842858416e-002
  +8.11611673281555574312e-006-j9.00894563513426546719e-003
  +5.19424042607533433587e-006-j7.20710602673637224652e-003
  +3.60708338657559936439e-006-j6.00589883820110918139e-003
  +2.65008966743228934447e-006-j5.14790148034591395210e-003
  +2.02896873381787209032e-006-j4.50440708878145201072e-003
  +1.60313244865099809912e-006-j4.00391332529518358813e-003
  +1.29853534771263861220e-006-j3.60351936180899933351e-003
  +1.07316852525695084936e-006-j3.27592492296127331744e-003
  +9.01758907169827566651e-007-j3.00292994565793183726e-003
  +7.68362117554749441423e-007-j2.77193444820889511523e-003
  +6.62515972498616458611e-007-j2.57393847752015059865e-003
  +5.77124783785647471923e-007-j2.40234208737711988149e-003
  +5.07238406042546646210e-007-j2.25219532970270287786e-003
  +4.49318322305451784202e-007-j2.11971295725802517593e-003
  +4.00780754036689498405e-007-j2.00195089343911799759e-003
</dep>
<dep _net0.v acfrequency>
  +1.00000000000000000000e+001
  +1.00000000000000000000e+001
  +1.00000000000000000000e+001
  +1.00000000000000000000e+001
  +1.00000000000000000000e+001
  +1.00000000000000000000e+001
  +1.00000000000000000000e+001
  +1.00000000000000000000e+001
  +1.00000000000000000000e+001
  +1.00000000000000000000e+001
  +1.00000000000000000000e+001
  +1.00000000000000000000e+001
  +1.00000000000000000000e+001
  +1.00000000000000000000e+001
  +1.00000000000000000000e+001
  +1.00000000000000000000e+001
  +1.00000000000000000000e+001
  +1.00000000000000000000e+001
  +1.00000000000000000000e+001
</dep>
