<Qucs Dataset 0.0.19>
<indep acfrequency 30>
  +1.00000000000000002082e-003
  +2.21221629107044934909e-003
  +4.89390091847749335308e-003
  +1.08263673387405476994e-002
  +2.39502661998748575534e-002
  +5.29831690628370793883e-002
  +1.17210229753348091353e-001
  +2.59294379740466818252e-001
  +5.73615251044868101893e-001
  +1.26896100316792215246e+000
  +2.80721620394117632458e+000
  +6.21016941891561913280e+000
  +1.37382379588326450914e+001
  +3.03919538231319741328e+001
  +6.72335753649934275700e+001
  +1.48735210729351109649e+002
  +3.29034456231266972281e+002
  +7.27895384398315854924e+002
  +1.61026202756093925927e+003
  +3.56224789026244479828e+003
  +7.88046281566990819556e+003
  +1.74332882219999155495e+004
  +3.85662042116347583942e+004
  +8.53167852417280664667e+004
  +1.88739182213510153815e+005
  +4.17531893656040600035e+005
  +9.23670857187386252917e+005
  +2.04335971785693988204e+006
  +4.52035365636024996638e+006
  +1.00000000000000037253e+007
</indep>
<dep Tdb_out acfrequency>
  -inf
  -1.43160450821979480907e+002
  -1.36263899097841886032e+002
  -1.29367347373705541713e+002
  -1.22470795649575435959e+002
  -1.15574243925475798278e+002
  -1.08677692201525275095e+002
  -1.01781140478304536146e+002
  -9.48845887586552549919e+001
  -8.79880370564843019565e+001
  -8.10914854398505866584e+001
  -7.41949342418275819000e+001
  -6.72983850924430839768e+001
  -6.04018459688713562628e+001
  -5.35053559101290971967e+001
  -4.66091059576976789458e+001
  -3.97140307755497303788e+001
  -3.28246978499499135751e+001
  -2.59633022042277232799e+001
  -1.92348121966219771650e+001
  -1.30782463941795157325e+001
  -8.65330012977720564038e+000
  -6.70358916727777476297e+000
  -6.16916144147283596055e+000
  -6.05137228073748723034e+000
  -6.02690556447462100209e+000
  -6.02188912911272655748e+000
  -6.02086337756170841828e+000
  -6.02065374980903200708e+000
  -6.02061091407343074167e+000
</dep>
<dep ArgT_out acfrequency>
  +0.00000000000000000000e+000
  +1.57079618779724761168e+000
  +1.57079601930203316407e+000
  +1.57079564655417458496e+000
  +1.57079482195528963295e+000
  +1.57079299776420278079e+000
  +1.57078896225896236238e+000
  +1.57078003484852790628e+000
  +1.57076028548573876087e+000
  +1.57071659562376075847e+000
  +1.57061994420065897948e+000
  +1.57040613036221921028e+000
  +1.56993312806039519991e+000
  +1.56888674633881364251e+000
  +1.56657194180846959242e+000
  +1.56145128993038273535e+000
  +1.55012542680985054844e+000
  +1.52509315884132856667e+000
  +1.46996370426573363943e+000
  +1.35060279856821363609e+000
  +1.11104099298689695807e+000
  +7.39916826205803790373e-001
  +3.91389243320900970247e-001
  +1.84426069660304198239e-001
  +8.41263085613074140801e-002
  +3.80995869831569217157e-002
  +1.72289938193864247684e-002
  +7.78872771876964672955e-003
  +3.52083703060772313861e-003
  +1.59154808710706041804e-003
</dep>
<dep Vin.v acfrequency>
  +1.00000000000000000000e+000
  +1.00000000000000000000e+000
  +1.00000000000000000000e+000
  +1.00000000000000000000e+000
  +1.00000000000000000000e+000
  +1.00000000000000000000e+000
  +1.00000000000000000000e+000
  +1.00000000000000000000e+000
  +1.00000000000000000000e+000
  +1.00000000000000000000e+000
  +1.00000000000000000000e+000
  +1.00000000000000000000e+000
  +1.00000000000000000000e+000
  +1.00000000000000000000e+000
  +1.00000000000000000000e+000
  +1.00000000000000000000e+000
  +1.00000000000000000000e+000
  +1.00000000000000000000e+000
  +1.00000000000000000000e+000
  +1.00000000000000000000e+000
  +1.00000000000000000000e+000
  +1.00000000000000000000e+000
  +1.00000000000000000000e+000
  +1.00000000000000000000e+000
  +1.00000000000000000000e+000
  +1.00000000000000000000e+000
  +1.00000000000000000000e+000
  +1.00000000000000000000e+000
  +1.00000000000000000000e+000
  +1.00000000000000000000e+000
</dep>
<dep Vout.v acfrequency>
  +0.00000000000000000000e+000
  +9.66017320869996231629e-015+j6.94988244817844947240e-008
  +4.72759305399058846875e-014+j1.53746431728837844891e-007
  +2.31363719885160807467e-013+j3.40120360964360496663e-007
  +1.13227112124740975129e-012+j7.52419803448764021454e-007
  +5.54122268018402896835e-012+j1.66451534689870289390e-006
  +2.71181947628707226294e-011+j3.68226796698718887929e-006
  +1.32713758229436544780e-010+j8.14597318293556137657e-006
  +6.49487982622362817829e-010+j1.80206545632878291320e-005
  +3.17852981861840014255e-009+j3.98655853990148790122e-005
  +1.55554096136898002895e-008+j8.81912952896947378769e-005
  +7.61266241735647038994e-008+j1.95098196535794360905e-004
  +3.72555935090436933652e-007+j4.31599152857479182507e-004
  +1.82324654297076500606e-006+j9.54787906949719445901e-004
  +8.92266120899876113981e-006+j2.11216737143188207707e-003
  +4.36635859345385103636e-005+j4.67224640387603994129e-003
  +2.13612625755001513334e-004+j1.03325061063515022397e-002
  +1.04366281630886609429e-003+j2.28197759866368386772e-002
  +5.06640350233552964887e-003+j5.00752764018261506407e-002
  +2.38533167915650490265e-002+j1.06572405780407178377e-001
  +9.84476505663216816533e-002+j1.98826269343696793168e-001
  +2.72709321396462478493e-001+j2.48966436938218987907e-001
  +4.27239185983637914656e-001+j1.76312991443788452672e-001
  +4.83185453860125679881e-001+j9.01362530175689180556e-002
  +4.96469722108327793375e-001+j4.18649744278398044939e-002
  +4.99274561847932063507e-001+j1.90313639952972707414e-002
  +4.99851595570589779527e-001+j8.61279226955957710743e-003
  +4.99969668473615624915e-001+j3.89420636211069330981e-003
  +4.99993801878913235459e-001+j1.76040396689698696621e-003
  +4.99998733488412561154e-001+j7.95772699743680137462e-004
</dep>
<dep Vi.i acfrequency>
  -1.99999999999999630114e-004+j6.28318530717956110134e-012
  -1.99999999999998085125e-004+j1.38997648963568996195e-011
  -1.99999999999990577025e-004+j3.07492863457675692883e-011
  -1.99999999999953741257e-004+j6.80240721928721004700e-011
  -1.99999999999773546856e-004+j1.50483960689752817608e-010
  -1.99999999998891765229e-004+j3.32903069379740618072e-010
  -1.99999999994576369532e-004+j7.36453593397437821353e-010
  -1.99999999973457249624e-004+j1.62919463658711217010e-009
  -1.99999999870102424925e-004+j3.60413091265756604014e-009
  -1.99999999364294030624e-004+j7.97311707980297476747e-009
  -1.99999996888918087990e-004+j1.76382590579389481895e-008
  -1.99999984774675156713e-004+j3.90196393071588715034e-008
  -1.99999925488812994260e-004+j8.63198305714958427694e-008
  -1.99999635350691404127e-004+j1.90957581389943896422e-007
  -1.99998215467752477829e-004+j4.22433474286376499608e-007
  -1.99991267282813100321e-004+j9.34449280775207983007e-007
  -1.99957277474848988796e-004+j2.06650122210182481621e-006
  -1.99791267436738226564e-004+j4.56395519732736791162e-006
  -1.98986719299532895501e-004+j1.00150552803652308979e-005
  -1.95229336641686990065e-004+j2.13144811560814350791e-005
  -1.80310469886735681537e-004+j3.97652538687393608562e-005
  -1.45458135720707515490e-004+j4.97932873876438025144e-005
  -1.14552162803272419953e-004+j3.52625982887576903176e-005
  -1.03362909227974869553e-004+j1.80272506035137829010e-005
  -1.00706055578334450150e-004+j8.37299488556796195587e-006
  -1.00145087630413597338e-004+j3.80627279905945450472e-006
  -1.00029680885868615817e-004+j1.72255845528537238251e-006
  -1.00006066305276879419e-004+j7.78841272422138734638e-007
  -1.00001239624217353277e-004+j3.52080793379397417382e-007
  -1.00000253302317493949e-004+j1.59154539948736027831e-007
</dep>
<dep _net0.v acfrequency>
  -2.04800000000000000000e+003+j6.87194767360000000000e+010
  +0.00000000000000000000e+000
  +2.98023223876953125000e-008-j3.55271367880050092936e-015
  +0.00000000000000000000e+000
  -5.96046447753906250000e-008
  +0.00000000000000000000e+000
  +0.00000000000000000000e+000+j1.13686837721616029739e-013
  +0.00000000000000000000e+000+j2.27373675443232059479e-013
  +2.98023223876953125000e-008
  +0.00000000000000000000e+000
  +0.00000000000000000000e+000
  -2.98023223876953125000e-008+j7.27595761418342590332e-012
  -2.98023223876953125000e-008
  -2.98023223876953125000e-008
  +1.02400000000000000000e+003
  +2.98023223876953125000e-008+j3.49245965480804443359e-010
  +0.00000000000000000000e+000+j1.31072000000000000000e+005
  -2.98023223876953125000e-008
  +0.00000000000000000000e+000
  -2.98023223876953125000e-008
  +0.00000000000000000000e+000
  +0.00000000000000000000e+000+j7.45058059692382812500e-009
  -1.49011611938476562500e-008
  +0.00000000000000000000e+000+j3.72529029846191406250e-009
  +0.00000000000000000000e+000
  -1.49011611938476562500e-008-j4.65661287307739257812e-010
  -1.02400000000000000000e+003-j6.55360000000000000000e+004
  -1.49011611938476562500e-008
  -1.49011611938476562500e-008-j1.16415321826934814453e-010
  +1.49011611938476562500e-008
</dep>
<dep _net1.v acfrequency>
  -2.04800000000000000000e+003+j6.87194767360000000000e+010
  -9.66017320869996231629e-015-j6.94988244817844947240e-008
  +2.98022751117647725941e-008-j1.53746435281551523691e-007
  -2.31363719885160807467e-013-j3.40120360964360496663e-007
  -5.96057770465118724098e-008-j7.52419803448764021454e-007
  -5.54122268018402896835e-012-j1.66451534689870289390e-006
  -2.71181947628707226294e-011-j3.68226785330035115767e-006
  -1.32713758229436544780e-010-j8.14597295556188593334e-006
  +2.91528344050729496822e-008-j1.80206545632878291320e-005
  -3.17852981861840014255e-009-j3.98655853990148790122e-005
  -1.55554096136898002895e-008-j8.81912952896947378769e-005
  -1.05928946561260016399e-007-j1.95098189259836746721e-004
  -4.02358257478132246152e-007-j4.31599152857479182507e-004
  -1.85304886535846031856e-006-j9.54787906949719445901e-004
  +1.02399999107733879100e+003-j2.11216737143188207707e-003
  -4.36337836121508150511e-005-j4.67224605463007446049e-003
  -2.13612625755001513334e-004+j1.31071989667493893648e+005
  -1.04369261863125378960e-003-j2.28197759866368386772e-002
  -5.06640350233552964887e-003-j5.00752764018261506407e-002
  -2.38533465938874367218e-002-j1.06572405780407178377e-001
  -9.84476505663216816533e-002-j1.98826269343696793168e-001
  -2.72709321396462478493e-001-j2.48966429487638390983e-001
  -4.27239200884799108504e-001-j1.76312991443788452672e-001
  -4.83185453860125679881e-001-j9.01362492922786195937e-002
  -4.96469722108327793375e-001-j4.18649744278398044939e-002
  -4.99274576749093257355e-001-j1.90313644609585580492e-002
  -1.02449985159557058978e+003-j6.55360086127922695596e+004
  -4.99969683374776818763e-001-j3.89420636211069330981e-003
  -4.99993816780074429307e-001-j1.76040408331230879314e-003
  -4.99998718587251367307e-001-j7.95772699743680137462e-004
</dep>
<dep _net2.v acfrequency>
  -2.04900000000000000000e+003+j6.87194767360000000000e+010
  -1.00000000000000000000e+000
  -9.99999970197677612305e-001-j3.55271367880050092936e-015
  -1.00000000000000000000e+000
  -1.00000005960464477539e+000
  -1.00000000000000000000e+000
  -1.00000000000000000000e+000+j1.13686837721616029739e-013
  -1.00000000000000000000e+000+j2.27373675443232059479e-013
  -9.99999970197677612305e-001
  -1.00000000000000000000e+000
  -1.00000000000000000000e+000
  -1.00000002980232238770e+000+j7.27595761418342590332e-012
  -1.00000002980232238770e+000
  -1.00000002980232238770e+000
  +1.02300000000000000000e+003
  -9.99999970197677612305e-001+j3.49245965480804443359e-010
  -1.00000000000000000000e+000+j1.31072000000000000000e+005
  -1.00000002980232238770e+000
  -1.00000000000000000000e+000
  -1.00000002980232238770e+000
  -1.00000000000000000000e+000
  -1.00000000000000000000e+000+j7.45058059692382812500e-009
  -1.00000001490116119385e+000
  -1.00000000000000000000e+000+j3.72529029846191406250e-009
  -1.00000000000000000000e+000
  -1.00000001490116119385e+000-j4.65661287307739257812e-010
  -1.02500000000000000000e+003-j6.55360000000000000000e+004
  -1.00000001490116119385e+000
  -1.00000001490116119385e+000-j1.16415321826934814453e-010
  -9.99999985098838806152e-001
</dep>
